"Z60W Data File: Version 1.1" 
"" 
"" 
"" 
"" 
"" 
"" 
"" 
0.2.0.1.1.100000 
150
Freq (Hz) Ampl Time(Sec); Z'(a) Z''(b) GD Err Range 
1000000.00000 0.00000 0.00000 0.00000 59.42962 -28.86992 0.00000 0.00000 0.00000
794330.00000 0.00000 0.00000 0.00000 63.41007 -24.27424 0.00000 0.00000 0.00000
630960.00000 0.00000 0.00000 0.00000 65.66692 -19.95046 0.00000 0.00000 0.00000
501190.00000 0.00000 0.00000 0.00000 67.01550 -16.54813 0.00000 0.00000 0.00000
398110.00000 0.00000 0.00000 0.00000 67.76385 -14.00626 0.00000 0.00000 0.00000
316230.00000 0.00000 0.00000 0.00000 68.12490 -12.32660 0.00000 0.00000 0.00000
251190.00000 0.00000 0.00000 0.00000 68.38441 -11.42271 0.00000 0.00000 0.00000
199530.00000 0.00000 0.00000 0.00000 68.61447 -11.20345 0.00000 0.00000 0.00000
158490.00000 0.00000 0.00000 0.00000 68.97243 -11.56385 0.00000 0.00000 0.00000
125890.00000 0.00000 0.00000 0.00000 69.46281 -12.43288 0.00000 0.00000 0.00000
100000.00000 0.00000 0.00000 0.00000 70.10146 -13.77617 0.00000 0.00000 0.00000
79433.00000 0.00000 0.00000 0.00000 70.97234 -15.62493 0.00000 0.00000 0.00000
63096.00000 0.00000 0.00000 0.00000 71.96067 -17.97461 0.00000 0.00000 0.00000
50119.00000 0.00000 0.00000 0.00000 73.19424 -20.93089 0.00000 0.00000 0.00000
39811.00000 0.00000 0.00000 0.00000 74.64583 -24.56052 0.00000 0.00000 0.00000
31623.00000 0.00000 0.00000 0.00000 76.27750 -28.96291 0.00000 0.00000 0.00000
25119.00000 0.00000 0.00000 0.00000 78.32195 -34.34769 0.00000 0.00000 0.00000
19953.00000 0.00000 0.00000 0.00000 80.69422 -40.83336 0.00000 0.00000 0.00000
15849.00000 0.00000 0.00000 0.00000 83.56606 -48.67735 0.00000 0.00000 0.00000
12589.00000 0.00000 0.00000 0.00000 86.98864 -58.13061 0.00000 0.00000 0.00000
10000.00000 0.00000 0.00000 0.00000 91.08641 -69.47969 0.00000 0.00000 0.00000
7943.30000 0.00000 0.00000 0.00000 96.14767 -83.13329 0.00000 0.00000 0.00000
6309.60000 0.00000 0.00000 0.00000 102.16912 -99.35493 0.00000 0.00000 0.00000
5011.90000 0.00000 0.00000 0.00000 109.44731 -118.75617 0.00000 0.00000 0.00000
3981.10000 0.00000 0.00000 0.00000 118.20313 -141.86533 0.00000 0.00000 0.00000
3162.30000 0.00000 0.00000 0.00000 128.58620 -169.33864 0.00000 0.00000 0.00000
2511.90000 0.00000 0.00000 0.00000 141.21082 -202.16983 0.00000 0.00000 0.00000
1995.30000 0.00000 0.00000 0.00000 155.87768 -241.22330 0.00000 0.00000 0.00000
1584.90000 0.00000 0.00000 0.00000 173.31688 -287.93192 0.00000 0.00000 0.00000
1258.90000 0.00000 0.00000 0.00000 194.04779 -343.88834 0.00000 0.00000 0.00000
1000.00000 0.00000 0.00000 0.00000 218.53146 -410.78725 0.00000 0.00000 0.00000
794.33000 0.00000 0.00000 0.00000 247.61966 -490.81272 0.00000 0.00000 0.00000
630.96000 0.00000 0.00000 0.00000 282.48465 -587.24220 0.00000 0.00000 0.00000
501.19000 0.00000 0.00000 0.00000 324.19745 -702.95166 0.00000 0.00000 0.00000
398.11000 0.00000 0.00000 0.00000 374.24491 -841.13469 0.00000 0.00000 0.00000
316.23000 0.00000 0.00000 0.00000 434.94075 -1008.29060 0.00000 0.00000 0.00000
251.19000 0.00000 0.00000 0.00000 508.39877 -1206.80024 0.00000 0.00000 0.00000
199.53000 0.00000 0.00000 0.00000 597.10664 -1444.85931 0.00000 0.00000 0.00000
158.49000 0.00000 0.00000 0.00000 705.22591 -1728.10986 0.00000 0.00000 0.00000
125.89000 0.00000 0.00000 0.00000 836.88539 -2066.63682 0.00000 0.00000 0.00000
100.00000 0.00000 0.00000 0.00000 996.96099 -2468.14803 0.00000 0.00000 0.00000
79.43300 0.00000 0.00000 0.00000 1192.80631 -2946.07712 0.00000 0.00000 0.00000
63.09600 0.00000 0.00000 0.00000 1434.03940 -3515.65040 0.00000 0.00000 0.00000
50.11900 0.00000 0.00000 0.00000 1716.75616 -4180.43091 0.00000 0.00000 0.00000
39.81100 0.00000 0.00000 0.00000 2068.93408 -4971.30388 0.00000 0.00000 0.00000
31.62300 0.00000 0.00000 0.00000 2498.63252 -5909.16028 0.00000 0.00000 0.00000
25.11900 0.00000 0.00000 0.00000 3008.71586 -6991.76993 0.00000 0.00000 0.00000
19.95300 0.00000 0.00000 0.00000 3624.39655 -8270.96074 0.00000 0.00000 0.00000
15.84900 0.00000 0.00000 0.00000 4373.15468 -9796.62919 0.00000 0.00000 0.00000
12.58900 0.00000 0.00000 0.00000 5256.77385 -11536.55839 0.00000 0.00000 0.00000
10.00000 0.00000 0.00000 0.00000 6310.31443 -13580.08005 0.00000 0.00000 0.00000
7.94330 0.00000 0.00000 0.00000 7530.15503 -15937.73462 0.00000 0.00000 0.00000
6.30960 0.00000 0.00000 0.00000 9011.27252 -18724.71291 0.00000 0.00000 0.00000
5.01190 0.00000 0.00000 0.00000 10716.07881 -21953.91854 0.00000 0.00000 0.00000
3.98110 0.00000 0.00000 0.00000 12693.03099 -25699.26398 0.00000 0.00000 0.00000
3.16230 0.00000 0.00000 0.00000 14986.29248 -30089.43073 0.00000 0.00000 0.00000
2.51190 0.00000 0.00000 0.00000 17547.09510 -35246.22804 0.00000 0.00000 0.00000
1.99530 0.00000 0.00000 0.00000 20511.82107 -41291.10867 0.00000 0.00000 0.00000
1.58490 0.00000 0.00000 0.00000 23830.39362 -48419.20056 0.00000 0.00000 0.00000
1.25890 0.00000 0.00000 0.00000 27610.63514 -56978.13173 0.00000 0.00000 0.00000
1.00000 0.00000 0.00000 0.00000 31813.57695 -67038.58964 0.00000 0.00000 0.00000
0.79433 0.00000 0.00000 0.00000 36566.82637 -79247.38120 0.00000 0.00000 0.00000
0.63096 0.00000 0.00000 0.00000 41896.78183 -93827.29677 0.00000 0.00000 0.00000
0.50119 0.00000 0.00000 0.00000 47747.01526 -111547.48568 0.00000 0.00000 0.00000
0.39811 0.00000 0.00000 0.00000 54531.95818 -133106.57729 0.00000 0.00000 0.00000
0.31623 0.00000 0.00000 0.00000 62144.56766 -159606.62241 0.00000 0.00000 0.00000
0.25119 0.00000 0.00000 0.00000 70808.22566 -191465.44344 0.00000 0.00000 0.00000
0.19953 0.00000 0.00000 0.00000 80959.71688 -230370.62144 0.00000 0.00000 0.00000
0.15849 0.00000 0.00000 0.00000 92805.80103 -277946.13119 0.00000 0.00000 0.00000
0.12589 0.00000 0.00000 0.00000 106768.29925 -337010.95726 0.00000 0.00000 0.00000
0.10000 0.00000 0.00000 0.00000 123857.75692 -409448.98392 0.00000 0.00000 0.00000
